
T2074 000:939 SEGGER J-Link V4.24b Log File (0001ms, 0933ms total)
T2074 000:939 DLL Compiled: Feb 22 2011 20:47:17 (0002ms, 0933ms total)
T2074 000:939 Logging started @ 2011-06-30 09:54 (0002ms, 0933ms total)
T2074 000:941 JLINK_SetWarnOutHandler(...) (0000ms, 0935ms total)
T2074 000:941 JLINK_OpenEx(...)
Firmware: J-Link ARM V8 compiled Jan 31 2011 18:34:52
Hardware: V8.00
S/N: 805306163
Feature(s): RDI,FlashDL,FlashBP,JFlash,GDBFull  returns O.K. (0638ms, 0935ms total)
T2074 001:581 JLINK_SetErrorOutHandler(...) (0000ms, 1573ms total)
T2074 001:582 JLINK_ExecCommand("ProjectFile = "E:\ºìÅ£ÍâÉètestÀý³Ì\USART_test\JLinkSettings.ini"", ...)  returns 0x00 (0001ms, 1573ms total)
T2074 001:584 JLINK_ExecCommand("DisableConnectionTimeout", ...)  returns 0x00 (0000ms, 1574ms total)
T2074 001:585 JLINK_TIF_Select(JLINKARM_TIF_SWD)  returns 0x00 (0004ms, 1574ms total)
T2074 001:592 JLINK_SetSpeed(2000) (0003ms, 1578ms total)
T2074 001:595 JLINK_GetHardwareVersion()  returns 0x13880 (0000ms, 1581ms total)
T2074 001:595 JLINK_GetDLLVersion()  returns 42402 (0000ms, 1581ms total)
T2074 001:595 JLINK_GetFirmwareString(...) (0000ms, 1581ms total)
T2074 001:598 JLINK_GetDLLVersion()  returns 42402 (0000ms, 1581ms total)
T2074 001:598 JLINK_GetCompileDateTime() (0000ms, 1581ms total)
T2074 001:599 JLINK_GetFirmwareString(...) (0000ms, 1581ms total)
T2074 001:599 JLINK_GetHardwareVersion()  returns 0x13880 (0000ms, 1581ms total)
T2074 001:602 JLINK_GetId() >0x108 TIF>Found SWD-DP with ID 0x1BA01477 >0x33 TIF> >0x33 TIF> >0x35 TIF> >0x33 TIF> >0x35 TIF> >0x33 TIF> >0x33 TIF> >0x35 TIF> >0x33 TIF> >0x33 TIF> >0x35 TIF> >0x33 TIF> >0x33 TIF> >0x35 TIF> >0x35 TIF> >0x35 TIF> >0x35 TIF> >0x33 TIF> >0x33 TIF> >0x33 TIF> >0x35 TIF> >0x35 TIF> >0x35 TIF> >0x35 TIF> >0x33 TIF> >0x33 TIF> >0x35 TIF> >0x35 TIF> >0x35 TIF> >0x33 TIF> >0x33 TIF>TPIU fitted. >0x35 TIF> >0x35 TIF> >0x35 TIF> >0x33 TIF> >0x33 TIF>ETM fitted. >0x35 TIF>
 >0x35 TIF> >0x35 TIF> >0x33 TIF> >0x33 TIF> >0x35 TIF> >0x35 TIF> >0x35 TIF> >0x33 TIF> >0x33 TIF>  FPUnit: 6 code (BP) slots and 2 literal slots >0x35 TIF> >0x35 TIF> >0x35 TIF> >0x33 TIF> >0x33 TIF> >0x35 TIF> >0x35 TIF> >0x35 TIF> >0x33 TIF> >0x33 TIF> >0x35 TIF> >0x35 TIF> >0x35 TIF> >0x33 TIF> >0x33 TIF>Found Cortex-M3 r1p1, Little endian. >0x33 TIF>  returns 0x1BA01477 (0087ms, 1581ms total)
T2074 001:689 JLINK_GetDebugInfo(0x100) -- Value=0xE00FF003  returns 0x00 (0007ms, 1668ms total)
T2074 001:696 JLINK_ReadMem (0xE00FFFF0, 0x0010 Bytes, ...) -- CPU is running -- CPU_ReadMem(16 bytes @ 0xE00FFFF0) -- Data:  0D 00 00 00 10 00 00 00 05 00 00 00 B1 00 00 00  returns 0x00 (0004ms, 1675ms total)
T2074 001:703 JLINK_ReadMem (0xE00FFFD0, 0x0020 Bytes, ...) -- CPU is running -- CPU_ReadMem(32 bytes @ 0xE00FFFD0) -- Data:  00 00 00 00 00 00 00 00 00 00 00 00 00 00 00 00 ...  returns 0x00 (0005ms, 1679ms total)
T2074 001:708 JLINK_ReadMem (0xE00FF000, 0x0018 Bytes, ...) -- CPU is running -- CPU_ReadMem(24 bytes @ 0xE00FF000) -- Data:  03 F0 F0 FF 03 20 F0 FF 03 30 F0 FF 03 10 F0 FF ...  returns 0x00 (0001ms, 1684ms total)
T2074 001:709 JLINK_ReadMemU32(0xE000ED00, 0x0001 Items, ...) -- CPU is running -- CPU_ReadMem(4 bytes @ 0xE000ED00) -- Data:  31 C2 1F 41  returns 0x01 (0001ms, 1685ms total)
T2074 001:710 JLINK_SetResetType(JLINKARM_RESET_TYPE_NORMAL)  returns JLINKARM_RESET_TYPE_NORMAL (0000ms, 1686ms total)
T2074 001:710 JLINK_Reset() >0x108 TIF>Found SWD-DP with ID 0x1BA01477 >0x33 TIF> >0x33 TIF> >0x35 TIF> >0x33 TIF> >0x35 TIF> >0x33 TIF> >0x33 TIF> >0x35 TIF> >0x33 TIF> >0x33 TIF> >0x35 TIF> >0x33 TIF> >0x33 TIF> >0x35 TIF> >0x35 TIF> >0x35 TIF> >0x35 TIF> >0x33 TIF> >0x33 TIF> >0x33 TIF> >0x35 TIF> >0x35 TIF> >0x35 TIF> >0x35 TIF> >0x33 TIF> >0x33 TIF> >0x35 TIF> >0x35 TIF> >0x35 TIF> >0x33 TIF> >0x33 TIF>TPIU fitted. >0x35 TIF> >0x35 TIF> >0x35 TIF> >0x33 TIF> >0x33 TIF>ETM fitted. >0x35 TIF>
 >0x35 TIF> >0x35 TIF> >0x33 TIF> >0x33 TIF> >0x35 TIF> >0x35 TIF> >0x35 TIF> >0x33 TIF> >0x33 TIF>  FPUnit: 6 code (BP) slots and 2 literal slots >0x35 TIF> >0x35 TIF> >0x35 TIF> >0x33 TIF> >0x33 TIF> >0x35 TIF> >0x35 TIF> >0x35 TIF> >0x33 TIF> >0x33 TIF> >0x35 TIF> >0x35 TIF> >0x35 TIF> >0x33 TIF> >0x33 TIF>Found Cortex-M3 r1p1, Little endian. (0099ms, 1686ms total)
T2074 001:809 JLINK_ReadReg(R15)  returns 0x08000100 (0000ms, 1785ms total)
T2074 001:809 JLINK_ReadReg(XPSR)  returns 0x01000000 (0000ms, 1785ms total)
T2074 001:809 JLINK_ExecCommand("Device = STM32F103ZE", ...)
                JLINK_ExecCommand("map ram 0x20000000 - 0x2000FFFF", ...)  returns 0x00 (0000ms, 0000ms total)
                JLINK_AddMirrorAreaEx(Addr = 0x00000000, Size = 0x00000000) (0000ms, 0000ms total)
                returns 0x00 (0002ms, 1786ms total)
T2074 001:812 JLINK_Halt() >0x108 TIF>Found SWD-DP with ID 0x1BA01477 >0x33 TIF> >0x33 TIF> >0x35 TIF> >0x33 TIF> >0x35 TIF> >0x33 TIF> >0x33 TIF> >0x35 TIF> >0x33 TIF> >0x33 TIF> >0x35 TIF> >0x33 TIF> >0x33 TIF> >0x35 TIF> >0x35 TIF> >0x35 TIF> >0x35 TIF> >0x33 TIF> >0x33 TIF> >0x33 TIF> >0x35 TIF> >0x35 TIF> >0x35 TIF> >0x35 TIF> >0x33 TIF> >0x33 TIF> >0x35 TIF> >0x35 TIF> >0x35 TIF> >0x33 TIF> >0x33 TIF>TPIU fitted. >0x35 TIF> >0x35 TIF> >0x35 TIF> >0x33 TIF> >0x33 TIF>ETM fitted. >0x35 TIF>
 >0x35 TIF> >0x35 TIF> >0x33 TIF> >0x33 TIF> >0x35 TIF> >0x35 TIF> >0x35 TIF> >0x33 TIF> >0x33 TIF>  FPUnit: 6 code (BP) slots and 2 literal slots >0x35 TIF> >0x35 TIF> >0x35 TIF> >0x33 TIF> >0x33 TIF> >0x35 TIF> >0x35 TIF> >0x35 TIF> >0x33 TIF> >0x33 TIF> >0x35 TIF> >0x35 TIF> >0x35 TIF> >0x33 TIF> >0x33 TIF>Found Cortex-M3 r1p1, Little endian.  returns 0x00 (0107ms, 1788ms total)
T2074 001:919 JLINK_IsHalted()  returns TRUE (0000ms, 1895ms total)
T2074 001:919 JLINK_ReadMemU32(0xE000EDF0, 0x0001 Items, ...) -- CPU_ReadMem(4 bytes @ 0xE000EDF0) -- Data:  03 00 03 00  returns 0x01 (0002ms, 1895ms total)
T2074 001:921 JLINK_WriteU32(0xE000EDF0, 0xA05F0003) -- CPU_WriteMem(4 bytes @ 0xE000EDF0)  returns 0x00 (0001ms, 1897ms total)
T2074 001:922 JLINK_WriteU32(0xE000EDFC, 0x01000000) -- CPU_WriteMem(4 bytes @ 0xE000EDFC)  returns 0x00 (0001ms, 1898ms total)
T2074 001:923 JLINK_ReadMemU32(0xE0002000, 0x0001 Items, ...) -- CPU_ReadMem(4 bytes @ 0xE0002000) -- Data:  60 02 00 00  returns 0x01 (0003ms, 1899ms total)
T2074 001:926 JLINK_ReadMemU32(0xE0001000, 0x0001 Items, ...) -- CPU_ReadMem(4 bytes @ 0xE0001000) -- Data:  01 00 00 40  returns 0x01 (0002ms, 1902ms total)
T2074 001:931 JLINK_GetHWStatus(...)  returns 0x00 (0002ms, 1904ms total)
T2074 001:934 JLINK_GetNumBPUnits(Type = 0xFFFFFF00)  returns 0x06 (0001ms, 1906ms total)
T2074 001:943 JLINK_GetNumBPUnits(Type = 0xF0)  returns 0x800 (0001ms, 1907ms total)
T2074 001:944 JLINK_GetNumWPUnits()  returns 0x00 (0000ms, 1908ms total)
T2074 001:962 JLINK_GetSpeed()  returns 0x7D0 (0002ms, 1908ms total)
T2074 001:977 JLINK_ReadMemU32(0xE000E004, 0x0001 Items, ...) -- CPU_ReadMem(4 bytes @ 0xE000E004) -- Data:  01 00 00 00  returns 0x01 (0002ms, 1910ms total)
T2074 001:979 JLINK_WriteMem(0xE0001000, 0x001C Bytes, ...) -- Data:  01 00 00 00 00 00 00 00 00 00 00 00 00 00 00 00 ... -- CPU_WriteMem(28 bytes @ 0xE0001000)  returns 0x1C (0002ms, 1912ms total)
T2074 001:981 JLINK_ReadMem (0xE0001000, 0x001C Bytes, ...) -- CPU_ReadMem(28 bytes @ 0xE0001000) -- Data:  01 00 00 40 00 00 00 00 00 00 00 00 00 00 00 00 ...  returns 0x00 (0002ms, 1914ms total)
T2074 001:984 JLINK_ReadReg(R15)  returns 0x08000100 (0000ms, 1916ms total)
T2074 001:984 JLINK_ReadReg(XPSR)  returns 0x01000000 (0000ms, 1916ms total)
T2074 013:661 JLINK_SetResetType(JLINKARM_RESET_TYPE_NORMAL)  returns JLINKARM_RESET_TYPE_NORMAL (0000ms, 1916ms total)
T2074 013:661 JLINK_Reset() >0x108 TIF>Found SWD-DP with ID 0x1BA01477 >0x33 TIF> >0x33 TIF> >0x35 TIF> >0x33 TIF> >0x35 TIF> >0x33 TIF> >0x33 TIF> >0x35 TIF> >0x33 TIF> >0x33 TIF> >0x35 TIF> >0x33 TIF> >0x33 TIF> >0x35 TIF> >0x35 TIF> >0x35 TIF> >0x35 TIF> >0x33 TIF> >0x33 TIF> >0x33 TIF> >0x35 TIF> >0x35 TIF> >0x35 TIF> >0x35 TIF> >0x33 TIF> >0x33 TIF> >0x35 TIF> >0x35 TIF> >0x35 TIF> >0x33 TIF> >0x33 TIF>TPIU fitted. >0x35 TIF> >0x35 TIF> >0x35 TIF> >0x33 TIF> >0x33 TIF>ETM fitted. >0x35 TIF>
 >0x35 TIF> >0x35 TIF> >0x33 TIF> >0x33 TIF> >0x35 TIF> >0x35 TIF> >0x35 TIF> >0x33 TIF> >0x33 TIF>  FPUnit: 6 code (BP) slots and 2 literal slots >0x35 TIF> >0x35 TIF> >0x35 TIF> >0x33 TIF> >0x33 TIF> >0x35 TIF> >0x35 TIF> >0x35 TIF> >0x33 TIF> >0x33 TIF> >0x35 TIF> >0x35 TIF> >0x35 TIF> >0x33 TIF> >0x33 TIF>Found Cortex-M3 r1p1, Little endian. (0110ms, 1916ms total)
T2074 013:772 JLINK_ReadReg(R15)  returns 0x08000100 (0000ms, 2026ms total)
T2074 013:772 JLINK_ReadReg(XPSR)  returns 0x01000000 (0001ms, 2026ms total)
T2074 013:773 JLINK_ReadReg(R0)  returns 0x40013800 (0000ms, 2027ms total)
T2074 013:773 JLINK_ReadReg(R1)  returns 0x00000525 (0000ms, 2027ms total)
T2074 013:773 JLINK_ReadReg(R2)  returns 0x000000C0 (0000ms, 2027ms total)
T2074 013:773 JLINK_ReadReg(R3)  returns 0x08010391 (0000ms, 2027ms total)
T2074 013:773 JLINK_ReadReg(R4)  returns 0x00000001 (0000ms, 2027ms total)
T2074 013:773 JLINK_ReadReg(R5)  returns 0x00000000 (0001ms, 2027ms total)
T2074 013:774 JLINK_ReadReg(R6)  returns 0x00000000 (0000ms, 2028ms total)
T2074 013:774 JLINK_ReadReg(R7)  returns 0x00000000 (0000ms, 2028ms total)
T2074 013:774 JLINK_ReadReg(R8)  returns 0x00000000 (0000ms, 2028ms total)
T2074 013:774 JLINK_ReadReg(R9)  returns 0x00000000 (0000ms, 2028ms total)
T2074 013:774 JLINK_ReadReg(R10)  returns 0x00000000 (0000ms, 2028ms total)
T2074 013:774 JLINK_ReadReg(R11)  returns 0x00000000 (0000ms, 2028ms total)
T2074 013:775 JLINK_ReadReg(R12)  returns 0x00000073 (0000ms, 2029ms total)
T2074 013:775 JLINK_ReadReg(R14)  returns 0xFFFFFFFF (0000ms, 2029ms total)
T2074 013:775 JLINK_ReadReg(R15)  returns 0x08000100 (0000ms, 2029ms total)
T2074 013:775 JLINK_ReadReg(XPSR)  returns 0x01000000 (0000ms, 2029ms total)
T2074 013:775 JLINK_ReadReg(CFBP)  returns 0x00000000 (0000ms, 2029ms total)
T2074 013:776 JLINK_ReadReg(MSP)  returns 0x2000E5C0 (0000ms, 2030ms total)
T2074 013:776 JLINK_WriteReg(R0, 0x40013800)  returns 0x00 (0000ms, 2030ms total)
T2074 013:776 JLINK_WriteReg(R1, 0x00000525)  returns 0x00 (0000ms, 2030ms total)
T2074 013:776 JLINK_WriteReg(R2, 0x000000C0)  returns 0x00 (0000ms, 2030ms total)
T2074 013:776 JLINK_WriteReg(R3, 0x08010391)  returns 0x00 (0000ms, 2030ms total)
T2074 013:776 JLINK_WriteReg(R4, 0x00000001)  returns 0x00 (0000ms, 2030ms total)
T2074 013:776 JLINK_WriteReg(R5, 0x00000000)  returns 0x00 (0001ms, 2030ms total)
T2074 013:777 JLINK_WriteReg(R6, 0x00000000)  returns 0x00 (0000ms, 2031ms total)
T2074 013:777 JLINK_WriteReg(R7, 0x00000000)  returns 0x00 (0000ms, 2031ms total)
T2074 013:777 JLINK_WriteReg(R8, 0x00000000)  returns 0x00 (0000ms, 2031ms total)
T2074 013:777 JLINK_WriteReg(R9, 0x00000000)  returns 0x00 (0000ms, 2031ms total)
T2074 013:777 JLINK_WriteReg(R10, 0x00000000)  returns 0x00 (0000ms, 2031ms total)
T2074 013:777 JLINK_WriteReg(R11, 0x00000000)  returns 0x00 (0001ms, 2031ms total)
T2074 013:778 JLINK_WriteReg(R12, 0x00000073)  returns 0x00 (0000ms, 2032ms total)
T2074 013:778 JLINK_WriteReg(R13, 0x2000E5C0)  returns 0x00 (0000ms, 2032ms total)
T2074 013:778 JLINK_WriteReg(R14, 0xFFFFFFFF)  returns 0x00 (0000ms, 2032ms total)
T2074 013:778 JLINK_WriteReg(R15, 0x08000100)  returns 0x00 (0000ms, 2032ms total)
T2074 013:778 JLINK_WriteReg(XPSR, 0x01000000)  returns 0x00 (0000ms, 2032ms total)
T2074 013:778 JLINK_WriteReg(MSP, 0x2000E5C0)  returns 0x00 (0001ms, 2032ms total)
T2074 013:779 JLINK_WriteReg(PSP, 0x00000000)  returns 0x00 (0000ms, 2033ms total)
T2074 013:779 JLINK_WriteReg(CFBP, 0x00000000)  returns 0x00 (0000ms, 2033ms total)
T2074 013:779 JLINK_ReadReg(R0)  returns 0x40013800 (0000ms, 2033ms total)
T2074 013:779 JLINK_ReadReg(R1)  returns 0x00000525 (0001ms, 2033ms total)
T2074 013:780 JLINK_ReadReg(R2)  returns 0x000000C0 (0000ms, 2034ms total)
T2074 013:780 JLINK_ReadReg(R3)  returns 0x08010391 (0000ms, 2034ms total)
T2074 013:780 JLINK_ReadReg(R4)  returns 0x00000001 (0000ms, 2034ms total)
T2074 013:780 JLINK_ReadReg(R5)  returns 0x00000000 (0000ms, 2034ms total)
T2074 013:780 JLINK_ReadReg(R6)  returns 0x00000000 (0000ms, 2034ms total)
T2074 013:780 JLINK_ReadReg(R7)  returns 0x00000000 (0001ms, 2034ms total)
T2074 013:781 JLINK_ReadReg(R8)  returns 0x00000000 (0000ms, 2035ms total)
T2074 013:781 JLINK_ReadReg(R9)  returns 0x00000000 (0000ms, 2035ms total)
T2074 013:781 JLINK_ReadReg(R10)  returns 0x00000000 (0000ms, 2035ms total)
T2074 013:781 JLINK_ReadReg(R11)  returns 0x00000000 (0000ms, 2035ms total)
T2074 013:781 JLINK_ReadReg(R12)  returns 0x00000073 (0000ms, 2035ms total)
T2074 013:781 JLINK_ReadReg(R14)  returns 0xFFFFFFFF (0001ms, 2035ms total)
T2074 013:782 JLINK_ReadReg(R15)  returns 0x08000100 (0000ms, 2036ms total)
T2074 013:782 JLINK_ReadReg(XPSR)  returns 0x01000000 (0000ms, 2036ms total)
T2074 013:782 JLINK_ReadReg(CFBP)  returns 0x00000000 (0000ms, 2036ms total)
T2074 013:782 JLINK_ReadReg(MSP)  returns 0x2000E5C0 (0000ms, 2036ms total)
T2074 013:783 JLINK_ReadMemU32(0xE0001004, 0x0001 Items, ...) -- CPU_ReadMem(4 bytes @ 0xE0001004) -- Data:  01 00 00 40  returns 0x01 (0001ms, 2037ms total)
T2074 013:784 JLINK_ReadMem (0x08000100, 0x003C Bytes, ...) -- CPU_ReadMem(64 bytes @ 0x08000100) -- Updating C cache (64 bytes @ 0x08000100) -- Read from C cache (60 bytes @ 0x08000100) -- Data:  00 48 00 47 ED 00 00 08 00 21 07 20 AB BE 70 47 ...  returns 0x00 (0003ms, 2038ms total)
T1BD8 023:724 JLINK_SetBPEx(Addr = 0x08010F04, Type = 0xFFFFFFF2)  returns 0x00000001 (0001ms, 2041ms total)
T1BD8 023:725 JLINK_SetBPEx(Addr = 0x080107F0, Type = 0xFFFFFFF2)  returns 0x00000002 (0000ms, 2042ms total)
T1BD8 023:725 JLINK_SetBPEx(Addr = 0x0801603C, Type = 0xFFFFFFF2)  returns 0x00000003 (0001ms, 2042ms total)
T1BD8 023:726 JLINK_SetBPEx(Addr = 0x08010FD0, Type = 0xFFFFFFF2)  returns 0x00000004 (0000ms, 2043ms total)
T1BD8 023:726 JLINK_SetBPEx(Addr = 0x08011014, Type = 0xFFFFFFF2)  returns 0x00000005 (0000ms, 2043ms total)
T1BD8 023:726 JLINK_SetBPEx(Addr = 0x0801076E, Type = 0xFFFFFFF2)  returns 0x00000006 (0000ms, 2043ms total)
T1BD8 023:726 JLINK_Go() -- CPU_WriteMem(4 bytes @ 0xE0002000) -- CPU_WriteMem(4 bytes @ 0xE0002008) -- CPU_WriteMem(4 bytes @ 0xE000200C) -- CPU_WriteMem(4 bytes @ 0xE0002010) -- CPU_WriteMem(4 bytes @ 0xE0002014) -- CPU_WriteMem(4 bytes @ 0xE0002018) -- CPU_WriteMem(4 bytes @ 0xE000201C) (0019ms, 2043ms total)
T1BD8 023:845 JLINK_IsHalted()  returns TRUE (0010ms, 2062ms total)
T1BD8 023:855 JLINK_Halt()  returns 0x00 (0000ms, 2062ms total)
T1BD8 023:856 JLINK_IsHalted()  returns TRUE (0000ms, 2063ms total)
T1BD8 023:856 JLINK_IsHalted()  returns TRUE (0000ms, 2063ms total)
T1BD8 023:856 JLINK_IsHalted()  returns TRUE (0001ms, 2063ms total)
T1BD8 023:857 JLINK_ReadReg(R15)  returns 0x08010F04 (0000ms, 2063ms total)
T1BD8 023:857 JLINK_ReadReg(XPSR)  returns 0x61000000 (0000ms, 2063ms total)
T1BD8 023:857 JLINK_ClrBPEx(BPHandle = 0x00000001)  returns 0x00 (0000ms, 2063ms total)
T1BD8 023:857 JLINK_ClrBPEx(BPHandle = 0x00000002)  returns 0x00 (0001ms, 2063ms total)
T1BD8 023:858 JLINK_ClrBPEx(BPHandle = 0x00000003)  returns 0x00 (0000ms, 2064ms total)
T1BD8 023:858 JLINK_ClrBPEx(BPHandle = 0x00000004)  returns 0x00 (0000ms, 2064ms total)
T1BD8 023:858 JLINK_ClrBPEx(BPHandle = 0x00000005)  returns 0x00 (0000ms, 2064ms total)
T1BD8 023:858 JLINK_ClrBPEx(BPHandle = 0x00000006)  returns 0x00 (0001ms, 2064ms total)
T1BD8 023:859 JLINK_ReadMemU32(0xE000ED30, 0x0001 Items, ...) -- CPU_ReadMem(4 bytes @ 0xE000ED30) -- Data:  03 00 00 00  returns 0x01 (0002ms, 2065ms total)
T1BD8 023:861 JLINK_ReadMemU32(0xE0001028, 0x0001 Items, ...) -- CPU_ReadMem(4 bytes @ 0xE0001028) -- Data:  01 00 00 40  returns 0x01 (0001ms, 2067ms total)
T1BD8 023:862 JLINK_ReadMemU32(0xE0001038, 0x0001 Items, ...) -- CPU_ReadMem(4 bytes @ 0xE0001038) -- Data:  01 00 00 40  returns 0x01 (0001ms, 2068ms total)
T1BD8 023:863 JLINK_ReadMemU32(0xE0001048, 0x0001 Items, ...) -- CPU_ReadMem(4 bytes @ 0xE0001048) -- Data:  01 00 00 40  returns 0x01 (0001ms, 2069ms total)
T1BD8 023:864 JLINK_ReadMemU32(0xE0001058, 0x0001 Items, ...) -- CPU_ReadMem(4 bytes @ 0xE0001058) -- Data:  01 00 00 40  returns 0x01 (0002ms, 2070ms total)
T1BD8 023:867 JLINK_ReadReg(R0)  returns 0x08010F05 (0006ms, 2073ms total)
T1BD8 023:873 JLINK_ReadReg(R1)  returns 0x2000E5C0 (0000ms, 2079ms total)
T1BD8 023:873 JLINK_ReadReg(R2)  returns 0x00000000 (0000ms, 2079ms total)
T1BD8 023:873 JLINK_ReadReg(R3)  returns 0x08003661 (0000ms, 2079ms total)
T1BD8 023:873 JLINK_ReadReg(R4)  returns 0x08019B48 (0000ms, 2079ms total)
T1BD8 023:873 JLINK_ReadReg(R5)  returns 0x08019B48 (0000ms, 2079ms total)
T1BD8 023:873 JLINK_ReadReg(R6)  returns 0x00000000 (0004ms, 2079ms total)
T1BD8 023:877 JLINK_ReadReg(R7)  returns 0x00000000 (0000ms, 2083ms total)
T1BD8 023:878 JLINK_ReadReg(R8)  returns 0x00000000 (0001ms, 2083ms total)
T1BD8 023:879 JLINK_ReadReg(R9)  returns 0x00000000 (0000ms, 2084ms total)
T1BD8 023:879 JLINK_ReadReg(R10)  returns 0x00000000 (0000ms, 2084ms total)
T1BD8 023:879 JLINK_ReadReg(R11)  returns 0x00000000 (0001ms, 2084ms total)
T1BD8 023:880 JLINK_ReadReg(R12)  returns 0x00000073 (0000ms, 2085ms total)
T1BD8 023:880 JLINK_ReadReg(R14)  returns 0x08000E91 (0000ms, 2085ms total)
T1BD8 023:880 JLINK_ReadReg(R15)  returns 0x08010F04 (0000ms, 2085ms total)
T1BD8 023:880 JLINK_ReadReg(XPSR)  returns 0x61000000 (0000ms, 2085ms total)
T1BD8 023:880 JLINK_ReadReg(CFBP)  returns 0x00000000 (0001ms, 2085ms total)
T1BD8 023:881 JLINK_ReadReg(MSP)  returns 0x2000E5C0 (0000ms, 2086ms total)
T2074 023:884 JLINK_WriteReg(R0, 0x08010F05)  returns 0x00 (0000ms, 2086ms total)
T2074 023:885 JLINK_WriteReg(R1, 0x2000E5C0)  returns 0x00 (0000ms, 2086ms total)
T2074 023:885 JLINK_WriteReg(R2, 0x00000000)  returns 0x00 (0000ms, 2086ms total)
T2074 023:885 JLINK_WriteReg(R3, 0x08003661)  returns 0x00 (0000ms, 2086ms total)
T2074 023:885 JLINK_WriteReg(R4, 0x08019B48)  returns 0x00 (0000ms, 2086ms total)
T2074 023:885 JLINK_WriteReg(R5, 0x08019B48)  returns 0x00 (0000ms, 2086ms total)
T2074 023:885 JLINK_WriteReg(R6, 0x00000000)  returns 0x00 (0001ms, 2086ms total)
T2074 023:886 JLINK_WriteReg(R7, 0x00000000)  returns 0x00 (0000ms, 2087ms total)
T2074 023:886 JLINK_WriteReg(R8, 0x00000000)  returns 0x00 (0000ms, 2087ms total)
T2074 023:886 JLINK_WriteReg(R9, 0x00000000)  returns 0x00 (0000ms, 2087ms total)
T2074 023:886 JLINK_WriteReg(R10, 0x00000000)  returns 0x00 (0000ms, 2087ms total)
T2074 023:886 JLINK_WriteReg(R11, 0x00000000)  returns 0x00 (0000ms, 2087ms total)
T2074 023:886 JLINK_WriteReg(R12, 0x00000073)  returns 0x00 (0001ms, 2087ms total)
T2074 023:887 JLINK_WriteReg(R13, 0x2000E5C0)  returns 0x00 (0000ms, 2088ms total)
T2074 023:887 JLINK_WriteReg(R14, 0x08000E91)  returns 0x00 (0000ms, 2088ms total)
T2074 023:887 JLINK_WriteReg(R15, 0x08010F04)  returns 0x00 (0000ms, 2088ms total)
T2074 023:887 JLINK_WriteReg(XPSR, 0x61000000)  returns 0x00 (0000ms, 2088ms total)
T2074 023:887 JLINK_WriteReg(MSP, 0x2000E5C0)  returns 0x00 (0000ms, 2088ms total)
T2074 023:887 JLINK_WriteReg(PSP, 0x00000000)  returns 0x00 (0001ms, 2088ms total)
T2074 023:888 JLINK_WriteReg(CFBP, 0x00000000)  returns 0x00 (0000ms, 2089ms total)
T2074 023:888 JLINK_ReadReg(R0)  returns 0x08010F05 (0000ms, 2089ms total)
T2074 023:888 JLINK_ReadReg(R1)  returns 0x2000E5C0 (0000ms, 2089ms total)
T2074 023:888 JLINK_ReadReg(R2)  returns 0x00000000 (0001ms, 2089ms total)
T2074 023:889 JLINK_ReadReg(R3)  returns 0x08003661 (0000ms, 2090ms total)
T2074 023:889 JLINK_ReadReg(R4)  returns 0x08019B48 (0000ms, 2090ms total)
T2074 023:889 JLINK_ReadReg(R5)  returns 0x08019B48 (0000ms, 2090ms total)
T2074 023:889 JLINK_ReadReg(R6)  returns 0x00000000 (0000ms, 2090ms total)
T2074 023:889 JLINK_ReadReg(R7)  returns 0x00000000 (0000ms, 2090ms total)
T2074 023:889 JLINK_ReadReg(R8)  returns 0x00000000 (0001ms, 2090ms total)
T2074 023:890 JLINK_ReadReg(R9)  returns 0x00000000 (0000ms, 2091ms total)
T2074 023:890 JLINK_ReadReg(R10)  returns 0x00000000 (0000ms, 2091ms total)
T2074 023:890 JLINK_ReadReg(R11)  returns 0x00000000 (0000ms, 2091ms total)
T2074 023:890 JLINK_ReadReg(R12)  returns 0x00000073 (0000ms, 2091ms total)
T2074 023:890 JLINK_ReadReg(R14)  returns 0x08000E91 (0000ms, 2091ms total)
T2074 023:890 JLINK_ReadReg(R15)  returns 0x08010F04 (0001ms, 2091ms total)
T2074 023:892 JLINK_ReadReg(XPSR)  returns 0x61000000 (0000ms, 2092ms total)
T2074 023:892 JLINK_ReadReg(CFBP)  returns 0x00000000 (0000ms, 2092ms total)
T2074 023:892 JLINK_ReadReg(MSP)  returns 0x2000E5C0 (0001ms, 2092ms total)
T2074 023:893 JLINK_ReadMemU32(0xE0001004, 0x0001 Items, ...) -- CPU_ReadMem(4 bytes @ 0xE0001004) -- Data:  01 00 00 40  returns 0x01 (0001ms, 2093ms total)
T2074 032:773 JLINK_ReadMem (0x08011014, 0x003C Bytes, ...) -- CPU_ReadMem(128 bytes @ 0x08011000) -- Updating C cache (128 bytes @ 0x08011000) -- Read from C cache (60 bytes @ 0x08011014) -- Data:  A9 68 08 46 5C A1 00 20 00 BF 1D 49 08 60 08 46 ...  returns 0x00 (0005ms, 2094ms total)
T2074 035:355 JLINK_ReadMem (0x08010FD4, 0x003C Bytes, ...) -- CPU_ReadMem(64 bytes @ 0x08010FC0) -- Updating C cache (64 bytes @ 0x08010FC0) -- Read from C cache (60 bytes @ 0x08010FD4) -- Data:  16 B9 4F F0 01 00 01 E0 4F F0 00 00 06 46 BA E7 ...  returns 0x00 (0004ms, 2099ms total)
T2074 035:744 JLINK_ReadMem (0x08010FD0, 0x003C Bytes, ...) -- Read from C cache (60 bytes @ 0x08010FD0) -- Data:  04 2C 07 D1 16 B9 4F F0 01 00 01 E0 4F F0 00 00 ...  returns 0x00 (0000ms, 2103ms total)
T2074 049:502 JLINK_ReadMem (0x0801076E, 0x0002 Bytes, ...) -- CPU_ReadMem(64 bytes @ 0x08010740) -- Updating C cache (64 bytes @ 0x08010740) -- Read from C cache (2 bytes @ 0x0801076E) -- Data:  30 A0  returns 0x00 (0004ms, 2103ms total)
T2074 049:506 JLINK_ReadMem (0x08010770, 0x003C Bytes, ...) -- CPU_ReadMem(64 bytes @ 0x08010780) -- Updating C cache (64 bytes @ 0x08010780) -- Read from C cache (60 bytes @ 0x08010770) -- Data:  F2 F7 E2 FA 30 E0 40 F2 25 51 30 48 F2 F7 28 F9 ...  returns 0x00 (0002ms, 2107ms total)
T2074 053:425 JLINK_ReadMem (0x080107C0, 0x003C Bytes, ...) -- CPU_ReadMem(64 bytes @ 0x080107C0) -- Updating C cache (64 bytes @ 0x080107C0) -- Read from C cache (60 bytes @ 0x080107C0) -- Data:  4F F0 00 00 05 46 08 E0 FA B2 28 46 05 F1 01 01 ...  returns 0x00 (0003ms, 2109ms total)
T1BD8 053:691 JLINK_SetBPEx(Addr = 0x080107F0, Type = 0xFFFFFFF2)  returns 0x00000007 (0000ms, 2112ms total)
T1BD8 053:691 JLINK_SetBPEx(Addr = 0x0801603C, Type = 0xFFFFFFF2)  returns 0x00000008 (0000ms, 2112ms total)
T1BD8 053:691 JLINK_SetBPEx(Addr = 0x0801104E, Type = 0xFFFFFFF2)  returns 0x00000009 (0000ms, 2112ms total)
T1BD8 053:691 JLINK_Go() -- CPU_WriteMem(4 bytes @ 0xE000200C) -- CPU_WriteMem(4 bytes @ 0xE0002008) -- CPU_WriteMem(4 bytes @ 0xE0002010) -- CPU_WriteMem(4 bytes @ 0xE000200C) -- CPU_WriteMem(4 bytes @ 0xE0002008) -- CPU_WriteMem(4 bytes @ 0xE0002010) -- CPU_WriteMem(4 bytes @ 0xE000200C) -- CPU_WriteMem(4 bytes @ 0xE0002014) -- CPU_WriteMem(4 bytes @ 0xE0002018) -- CPU_WriteMem(4 bytes @ 0xE000201C) (0020ms, 2112ms total)
T1BD8 053:811 JLINK_IsHalted()  returns TRUE (0007ms, 2132ms total)
T1BD8 053:818 JLINK_Halt()  returns 0x00 (0000ms, 2132ms total)
T1BD8 053:818 JLINK_IsHalted()  returns TRUE (0000ms, 2132ms total)
T1BD8 053:818 JLINK_IsHalted()  returns TRUE (0000ms, 2132ms total)
T1BD8 053:818 JLINK_IsHalted()  returns TRUE (0000ms, 2132ms total)
T1BD8 053:818 JLINK_ReadReg(R15)  returns 0x0801603C (0000ms, 2132ms total)
T1BD8 053:818 JLINK_ReadReg(XPSR)  returns 0x61000000 (0001ms, 2132ms total)
T1BD8 053:819 JLINK_ClrBPEx(BPHandle = 0x00000007)  returns 0x00 (0000ms, 2133ms total)
T1BD8 053:819 JLINK_ClrBPEx(BPHandle = 0x00000008)  returns 0x00 (0000ms, 2133ms total)
T1BD8 053:819 JLINK_ClrBPEx(BPHandle = 0x00000009)  returns 0x00 (0000ms, 2133ms total)
T1BD8 053:819 JLINK_ReadMemU32(0xE000ED30, 0x0001 Items, ...) -- CPU_ReadMem(4 bytes @ 0xE000ED30) -- Data:  03 00 00 00  returns 0x01 (0002ms, 2133ms total)
T1BD8 053:821 JLINK_ReadMemU32(0xE0001028, 0x0001 Items, ...) -- CPU_ReadMem(4 bytes @ 0xE0001028) -- Data:  01 00 00 40  returns 0x01 (0001ms, 2135ms total)
T1BD8 053:822 JLINK_ReadMemU32(0xE0001038, 0x0001 Items, ...) -- CPU_ReadMem(4 bytes @ 0xE0001038) -- Data:  01 00 00 40  returns 0x01 (0001ms, 2136ms total)
T1BD8 053:823 JLINK_ReadMemU32(0xE0001048, 0x0001 Items, ...) -- CPU_ReadMem(4 bytes @ 0xE0001048) -- Data:  01 00 00 40  returns 0x01 (0001ms, 2137ms total)
T1BD8 053:824 JLINK_ReadMemU32(0xE0001058, 0x0001 Items, ...) -- CPU_ReadMem(4 bytes @ 0xE0001058) -- Data:  01 00 00 40  returns 0x01 (0002ms, 2138ms total)
T1BD8 053:826 JLINK_ReadReg(R0)  returns 0x00000000 (0000ms, 2140ms total)
T1BD8 053:827 JLINK_ReadReg(R1)  returns 0x00000000 (0000ms, 2140ms total)
T1BD8 053:827 JLINK_ReadReg(R2)  returns 0x00000000 (0000ms, 2140ms total)
T1BD8 053:827 JLINK_ReadReg(R3)  returns 0x00000000 (0000ms, 2140ms total)
T1BD8 053:827 JLINK_ReadReg(R4)  returns 0x00000000 (0000ms, 2140ms total)
T1BD8 053:827 JLINK_ReadReg(R5)  returns 0x00000000 (0000ms, 2140ms total)
T1BD8 053:828 JLINK_ReadReg(R6)  returns 0x00000000 (0000ms, 2141ms total)
T1BD8 053:828 JLINK_ReadReg(R7)  returns 0x00000000 (0000ms, 2141ms total)
T1BD8 053:828 JLINK_ReadReg(R8)  returns 0x20001C80 (0000ms, 2141ms total)
T1BD8 053:828 JLINK_ReadReg(R9)  returns 0x00001464 (0000ms, 2141ms total)
T1BD8 053:828 JLINK_ReadReg(R10)  returns 0x00000000 (0000ms, 2141ms total)
T1BD8 053:828 JLINK_ReadReg(R11)  returns 0x00000000 (0000ms, 2141ms total)
T1BD8 053:828 JLINK_ReadReg(R12)  returns 0x00000073 (0001ms, 2141ms total)
T1BD8 053:829 JLINK_ReadReg(R14)  returns 0x08000C0D (0000ms, 2142ms total)
T1BD8 053:829 JLINK_ReadReg(R15)  returns 0x0801603C (0000ms, 2142ms total)
T1BD8 053:829 JLINK_ReadReg(XPSR)  returns 0x61000000 (0000ms, 2142ms total)
T1BD8 053:829 JLINK_ReadReg(CFBP)  returns 0x00000000 (0000ms, 2142ms total)
T1BD8 053:829 JLINK_ReadReg(MSP)  returns 0x2000E390 (0000ms, 2142ms total)
T1BD8 053:829 JLINK_ReadMem (0x2000E4CC, 0x0004 Bytes, ...) -- CPU_ReadMem(64 bytes @ 0x2000E4C0) -- Updating C cache (64 bytes @ 0x2000E4C0) -- Read from C cache (4 bytes @ 0x2000E4CC) -- Data:  3D 10 01 08  returns 0x00 (0003ms, 2142ms total)
T2074 053:833 JLINK_ReadMem (0x2000E4AC, 0x0004 Bytes, ...) -- CPU_ReadMem(64 bytes @ 0x2000E480) -- Updating C cache (64 bytes @ 0x2000E480) -- Read from C cache (4 bytes @ 0x2000E4AC) -- Data:  01 00 00 00  returns 0x00 (0002ms, 2145ms total)
T2074 053:835 JLINK_ReadMem (0x2000E4B0, 0x0004 Bytes, ...) -- Read from C cache (4 bytes @ 0x2000E4B0) -- Data:  C0 E5 00 20  returns 0x00 (0000ms, 2147ms total)
T2074 053:835 JLINK_ReadMem (0x2000E4B4, 0x0004 Bytes, ...) -- Read from C cache (4 bytes @ 0x2000E4B4) -- Data:  00 00 00 00  returns 0x00 (0001ms, 2147ms total)
T2074 053:836 JLINK_ReadMem (0x2000E4B8, 0x0004 Bytes, ...) -- Read from C cache (4 bytes @ 0x2000E4B8) -- Data:  05 0F 01 08  returns 0x00 (0000ms, 2148ms total)
T2074 053:836 JLINK_ReadMem (0x2000E4BC, 0x0004 Bytes, ...) -- Read from C cache (4 bytes @ 0x2000E4BC) -- Data:  00 00 00 00  returns 0x00 (0000ms, 2148ms total)
T2074 053:836 JLINK_ReadMem (0x2000E4C0, 0x0004 Bytes, ...) -- Read from C cache (4 bytes @ 0x2000E4C0) -- Data:  00 00 00 00  returns 0x00 (0000ms, 2148ms total)
T2074 053:836 JLINK_ReadMem (0x2000E4C4, 0x0004 Bytes, ...) -- Read from C cache (4 bytes @ 0x2000E4C4) -- Data:  00 00 00 00  returns 0x00 (0001ms, 2148ms total)
T2074 053:837 JLINK_ReadMem (0x2000E4C8, 0x0004 Bytes, ...) -- Read from C cache (4 bytes @ 0x2000E4C8) -- Data:  00 00 00 00  returns 0x00 (0000ms, 2149ms total)
T2074 053:837 JLINK_ReadMem (0x2000E5BC, 0x0004 Bytes, ...) -- CPU_ReadMem(64 bytes @ 0x2000E580) -- Updating C cache (64 bytes @ 0x2000E580) -- Read from C cache (4 bytes @ 0x2000E5BC) -- Data:  91 0E 00 08  returns 0x00 (0002ms, 2149ms total)
T2074 053:839 JLINK_WriteReg(R0, 0x00000000)  returns 0x00 (0000ms, 2151ms total)
T2074 053:839 JLINK_WriteReg(R1, 0x00000000)  returns 0x00 (0001ms, 2151ms total)
T2074 053:840 JLINK_WriteReg(R2, 0x00000000)  returns 0x00 (0000ms, 2152ms total)
T2074 053:840 JLINK_WriteReg(R3, 0x00000000)  returns 0x00 (0000ms, 2152ms total)
T2074 053:840 JLINK_WriteReg(R4, 0x00000000)  returns 0x00 (0000ms, 2152ms total)
T2074 053:840 JLINK_WriteReg(R5, 0x00000000)  returns 0x00 (0000ms, 2152ms total)
T2074 053:840 JLINK_WriteReg(R6, 0x00000000)  returns 0x00 (0000ms, 2152ms total)
T2074 053:840 JLINK_WriteReg(R7, 0x00000000)  returns 0x00 (0000ms, 2152ms total)
T2074 053:840 JLINK_WriteReg(R8, 0x20001C80)  returns 0x00 (0001ms, 2152ms total)
T2074 053:841 JLINK_WriteReg(R9, 0x00001464)  returns 0x00 (0000ms, 2153ms total)
T2074 053:841 JLINK_WriteReg(R10, 0x00000000)  returns 0x00 (0000ms, 2153ms total)
T2074 053:841 JLINK_WriteReg(R11, 0x00000000)  returns 0x00 (0000ms, 2153ms total)
T2074 053:841 JLINK_WriteReg(R12, 0x00000073)  returns 0x00 (0000ms, 2153ms total)
T2074 053:841 JLINK_WriteReg(R13, 0x2000E390)  returns 0x00 (0000ms, 2153ms total)
T2074 053:841 JLINK_WriteReg(R14, 0x08000C0D)  returns 0x00 (0000ms, 2153ms total)
T2074 053:841 JLINK_WriteReg(R15, 0x0801603C)  returns 0x00 (0000ms, 2153ms total)
T2074 053:841 JLINK_WriteReg(XPSR, 0x61000000)  returns 0x00 (0001ms, 2153ms total)
T2074 053:842 JLINK_WriteReg(MSP, 0x2000E390)  returns 0x00 (0000ms, 2154ms total)
T2074 053:842 JLINK_WriteReg(PSP, 0x00000000)  returns 0x00 (0000ms, 2154ms total)
T2074 053:842 JLINK_WriteReg(CFBP, 0x00000000)  returns 0x00 (0000ms, 2154ms total)
T2074 053:842 JLINK_ReadReg(R0)  returns 0x00000000 (0000ms, 2154ms total)
T2074 053:842 JLINK_ReadReg(R1)  returns 0x00000000 (0000ms, 2154ms total)
T2074 053:842 JLINK_ReadReg(R2)  returns 0x00000000 (0000ms, 2154ms total)
T2074 053:842 JLINK_ReadReg(R3)  returns 0x00000000 (0001ms, 2154ms total)
T2074 053:843 JLINK_ReadReg(R4)  returns 0x00000000 (0000ms, 2155ms total)
T2074 053:843 JLINK_ReadReg(R5)  returns 0x00000000 (0000ms, 2155ms total)
T2074 053:843 JLINK_ReadReg(R6)  returns 0x00000000 (0000ms, 2155ms total)
T2074 053:843 JLINK_ReadReg(R7)  returns 0x00000000 (0000ms, 2155ms total)
T2074 053:843 JLINK_ReadReg(R8)  returns 0x20001C80 (0000ms, 2155ms total)
T2074 053:843 JLINK_ReadReg(R9)  returns 0x00001464 (0000ms, 2155ms total)
T2074 053:843 JLINK_ReadReg(R10)  returns 0x00000000 (0000ms, 2155ms total)
T2074 053:843 JLINK_ReadReg(R11)  returns 0x00000000 (0000ms, 2155ms total)
T2074 053:843 JLINK_ReadReg(R12)  returns 0x00000073 (0000ms, 2155ms total)
T2074 053:843 JLINK_ReadReg(R14)  returns 0x08000C0D (0000ms, 2155ms total)
T2074 053:843 JLINK_ReadReg(R15)  returns 0x0801603C (0000ms, 2155ms total)
T2074 053:843 JLINK_ReadReg(XPSR)  returns 0x61000000 (0000ms, 2155ms total)
T2074 053:843 JLINK_ReadReg(CFBP)  returns 0x00000000 (0001ms, 2155ms total)
T2074 053:844 JLINK_ReadReg(MSP)  returns 0x2000E390 (0000ms, 2156ms total)
T2074 053:844 JLINK_ReadMemU32(0xE0001004, 0x0001 Items, ...) -- CPU_ReadMem(4 bytes @ 0xE0001004) -- Data:  01 00 00 40  returns 0x01 (0001ms, 2156ms total)
T2074 054:049 JLINK_ReadMem (0x0801603C, 0x003C Bytes, ...) -- CPU_ReadMem(128 bytes @ 0x08016000) -- Updating C cache (128 bytes @ 0x08016000) -- Read from C cache (60 bytes @ 0x0801603C) -- Data:  00 F0 08 FB 00 20 D9 E6 38 16 00 20 72 73 32 37 ...  returns 0x00 (0002ms, 2157ms total)
T1BD8 055:364 JLINK_Step() -- Read from C cache (2 bytes @ 0x0801603C) -- Not simulated -- CPU_WriteMem(4 bytes @ 0xE0002008) -- CPU_WriteMem(4 bytes @ 0xE000200C) -- CPU_WriteMem(4 bytes @ 0xE0002010) -- CPU_WriteMem(4 bytes @ 0xE0002014) -- CPU_WriteMem(4 bytes @ 0xE0002018) -- CPU_WriteMem(4 bytes @ 0xE000201C)  returns 0x00 (0019ms, 2159ms total)
T1BD8 055:383 JLINK_ReadReg(R15)  returns 0x08016650 (0000ms, 2178ms total)
T1BD8 055:383 JLINK_ReadReg(XPSR)  returns 0x61000000 (0000ms, 2178ms total)
T1BD8 055:383 JLINK_SetBPEx(Addr = 0x080107F0, Type = 0xFFFFFFF2)  returns 0x0000000A (0000ms, 2178ms total)
T1BD8 055:384 JLINK_SetBPEx(Addr = 0x0801603C, Type = 0xFFFFFFF2)  returns 0x0000000B (0000ms, 2179ms total)
T1BD8 055:384 JLINK_SetBPEx(Addr = 0x0801104E, Type = 0xFFFFFFF2)  returns 0x0000000C (0000ms, 2179ms total)
T1BD8 055:384 JLINK_Go() -- CPU_WriteMem(4 bytes @ 0xE0002008) -- CPU_WriteMem(4 bytes @ 0xE000200C) -- CPU_WriteMem(4 bytes @ 0xE0002010) -- CPU_WriteMem(4 bytes @ 0xE0002014) -- CPU_WriteMem(4 bytes @ 0xE0002018) -- CPU_WriteMem(4 bytes @ 0xE000201C) (0006ms, 2179ms total)
T1BD8 055:491 JLINK_IsHalted()  returns TRUE (0008ms, 2185ms total)
T1BD8 055:499 JLINK_Halt()  returns 0x00 (0000ms, 2185ms total)
T1BD8 055:499 JLINK_IsHalted()  returns TRUE (0001ms, 2185ms total)
T1BD8 055:500 JLINK_IsHalted()  returns TRUE (0000ms, 2185ms total)
T1BD8 055:500 JLINK_IsHalted()  returns TRUE (0000ms, 2185ms total)
T1BD8 055:500 JLINK_ReadReg(R15)  returns 0x0801104E (0000ms, 2185ms total)
T1BD8 055:500 JLINK_ReadReg(XPSR)  returns 0x61000000 (0000ms, 2185ms total)
T1BD8 055:501 JLINK_ClrBPEx(BPHandle = 0x0000000A)  returns 0x00 (0000ms, 2186ms total)
T1BD8 055:501 JLINK_ClrBPEx(BPHandle = 0x0000000B)  returns 0x00 (0000ms, 2186ms total)
T1BD8 055:501 JLINK_ClrBPEx(BPHandle = 0x0000000C)  returns 0x00 (0001ms, 2186ms total)
T1BD8 055:502 JLINK_ReadMemU32(0xE000ED30, 0x0001 Items, ...) -- CPU_ReadMem(4 bytes @ 0xE000ED30) -- Data:  03 00 00 00  returns 0x01 (0001ms, 2187ms total)
T1BD8 055:504 JLINK_ReadMemU32(0xE0001028, 0x0001 Items, ...) -- CPU_ReadMem(4 bytes @ 0xE0001028) -- Data:  01 00 00 40  returns 0x01 (0001ms, 2188ms total)
T1BD8 055:505 JLINK_ReadMemU32(0xE0001038, 0x0001 Items, ...) -- CPU_ReadMem(4 bytes @ 0xE0001038) -- Data:  01 00 00 40  returns 0x01 (0001ms, 2189ms total)
T1BD8 055:506 JLINK_ReadMemU32(0xE0001048, 0x0001 Items, ...) -- CPU_ReadMem(4 bytes @ 0xE0001048) -- Data:  01 00 00 40  returns 0x01 (0002ms, 2190ms total)
T1BD8 055:508 JLINK_ReadMemU32(0xE0001058, 0x0001 Items, ...) -- CPU_ReadMem(4 bytes @ 0xE0001058) -- Data:  01 00 00 40  returns 0x01 (0001ms, 2192ms total)
T1BD8 055:509 JLINK_ReadReg(R0)  returns 0x00000000 (0000ms, 2193ms total)
T1BD8 055:510 JLINK_ReadReg(R1)  returns 0x00000000 (0000ms, 2194ms total)
T1BD8 055:510 JLINK_ReadReg(R2)  returns 0x2000E3C0 (0000ms, 2194ms total)
T1BD8 055:510 JLINK_ReadReg(R3)  returns 0x00000000 (0000ms, 2194ms total)
T1BD8 055:510 JLINK_ReadReg(R4)  returns 0x00000001 (0000ms, 2194ms total)
T1BD8 055:510 JLINK_ReadReg(R5)  returns 0x2000E5C0 (0000ms, 2194ms total)
T1BD8 055:511 JLINK_ReadReg(R6)  returns 0x00000000 (0000ms, 2194ms total)
T1BD8 055:511 JLINK_ReadReg(R7)  returns 0x08010F05 (0000ms, 2194ms total)
T1BD8 055:511 JLINK_ReadReg(R8)  returns 0x00000000 (0000ms, 2194ms total)
T1BD8 055:511 JLINK_ReadReg(R9)  returns 0x00000000 (0000ms, 2194ms total)
T1BD8 055:511 JLINK_ReadReg(R10)  returns 0x00000000 (0000ms, 2194ms total)
T1BD8 055:511 JLINK_ReadReg(R11)  returns 0x00000000 (0000ms, 2194ms total)
T1BD8 055:512 JLINK_ReadReg(R12)  returns 0x00000073 (0000ms, 2195ms total)
T1BD8 055:512 JLINK_ReadReg(R14)  returns 0x08016705 (0000ms, 2195ms total)
T1BD8 055:512 JLINK_ReadReg(R15)  returns 0x0801104E (0000ms, 2195ms total)
T1BD8 055:512 JLINK_ReadReg(XPSR)  returns 0x61000000 (0000ms, 2195ms total)
T1BD8 055:512 JLINK_ReadReg(CFBP)  returns 0x00000000 (0000ms, 2195ms total)
T1BD8 055:512 JLINK_ReadReg(MSP)  returns 0x2000E4D0 (0001ms, 2195ms total)
T1BD8 055:513 JLINK_ReadMem (0x2000E5BC, 0x0004 Bytes, ...) -- CPU_ReadMem(64 bytes @ 0x2000E580) -- Updating C cache (64 bytes @ 0x2000E580) -- Read from C cache (4 bytes @ 0x2000E5BC) -- Data:  91 0E 00 08  returns 0x00 (0004ms, 2196ms total)
T1BD8 055:521 JLINK_ReadMem (0x2000E5C4, 0x0004 Bytes, ...) -- CPU_ReadMem(64 bytes @ 0x2000E5C0) -- Updating C cache (64 bytes @ 0x2000E5C0) -- Read from C cache (4 bytes @ 0x2000E5C4) -- Data:  DD 3E BB ED  returns 0x00 (0003ms, 2200ms total)
T2074 055:524 JLINK_WriteReg(R0, 0x00000000)  returns 0x00 (0000ms, 2203ms total)
T2074 055:524 JLINK_WriteReg(R1, 0x00000000)  returns 0x00 (0000ms, 2203ms total)
T2074 055:524 JLINK_WriteReg(R2, 0x2000E3C0)  returns 0x00 (0000ms, 2203ms total)
T2074 055:524 JLINK_WriteReg(R3, 0x00000000)  returns 0x00 (0001ms, 2203ms total)
T2074 055:525 JLINK_WriteReg(R4, 0x00000001)  returns 0x00 (0000ms, 2204ms total)
T2074 055:525 JLINK_WriteReg(R5, 0x2000E5C0)  returns 0x00 (0000ms, 2204ms total)
T2074 055:525 JLINK_WriteReg(R6, 0x00000000)  returns 0x00 (0000ms, 2204ms total)
T2074 055:525 JLINK_WriteReg(R7, 0x08010F05)  returns 0x00 (0000ms, 2204ms total)
T2074 055:525 JLINK_WriteReg(R8, 0x00000000)  returns 0x00 (0000ms, 2204ms total)
T2074 055:525 JLINK_WriteReg(R9, 0x00000000)  returns 0x00 (0001ms, 2204ms total)
T2074 055:526 JLINK_WriteReg(R10, 0x00000000)  returns 0x00 (0000ms, 2205ms total)
T2074 055:526 JLINK_WriteReg(R11, 0x00000000)  returns 0x00 (0000ms, 2205ms total)
T2074 055:526 JLINK_WriteReg(R12, 0x00000073)  returns 0x00 (0000ms, 2205ms total)
T2074 055:526 JLINK_WriteReg(R13, 0x2000E4D0)  returns 0x00 (0000ms, 2205ms total)
T2074 055:526 JLINK_WriteReg(R14, 0x08016705)  returns 0x00 (0000ms, 2205ms total)
T2074 055:527 JLINK_WriteReg(R15, 0x0801104E)  returns 0x00 (0000ms, 2205ms total)
T2074 055:527 JLINK_WriteReg(XPSR, 0x61000000)  returns 0x00 (0000ms, 2205ms total)
T2074 055:527 JLINK_WriteReg(MSP, 0x2000E4D0)  returns 0x00 (0000ms, 2205ms total)
T2074 055:527 JLINK_WriteReg(PSP, 0x00000000)  returns 0x00 (0000ms, 2205ms total)
T2074 055:527 JLINK_WriteReg(CFBP, 0x00000000)  returns 0x00 (0000ms, 2205ms total)
T2074 055:528 JLINK_ReadReg(R0)  returns 0x00000000 (0000ms, 2205ms total)
T2074 055:528 JLINK_ReadReg(R1)  returns 0x00000000 (0000ms, 2205ms total)
T2074 055:528 JLINK_ReadReg(R2)  returns 0x2000E3C0 (0000ms, 2205ms total)
T2074 055:528 JLINK_ReadReg(R3)  returns 0x00000000 (0000ms, 2205ms total)
T2074 055:528 JLINK_ReadReg(R4)  returns 0x00000001 (0000ms, 2205ms total)
T2074 055:528 JLINK_ReadReg(R5)  returns 0x2000E5C0 (0000ms, 2205ms total)
T2074 055:528 JLINK_ReadReg(R6)  returns 0x00000000 (0001ms, 2205ms total)
T2074 055:529 JLINK_ReadReg(R7)  returns 0x08010F05 (0000ms, 2206ms total)
T2074 055:529 JLINK_ReadReg(R8)  returns 0x00000000 (0000ms, 2206ms total)
T2074 055:529 JLINK_ReadReg(R9)  returns 0x00000000 (0000ms, 2206ms total)
T2074 055:529 JLINK_ReadReg(R10)  returns 0x00000000 (0000ms, 2206ms total)
T2074 055:529 JLINK_ReadReg(R11)  returns 0x00000000 (0000ms, 2206ms total)
T2074 055:529 JLINK_ReadReg(R12)  returns 0x00000073 (0000ms, 2206ms total)
T2074 055:529 JLINK_ReadReg(R14)  returns 0x08016705 (0001ms, 2206ms total)
T2074 055:530 JLINK_ReadReg(R15)  returns 0x0801104E (0000ms, 2207ms total)
T2074 055:530 JLINK_ReadReg(XPSR)  returns 0x61000000 (0000ms, 2207ms total)
T2074 055:530 JLINK_ReadReg(CFBP)  returns 0x00000000 (0000ms, 2207ms total)
T2074 055:530 JLINK_ReadReg(MSP)  returns 0x2000E4D0 (0000ms, 2207ms total)
T2074 055:530 JLINK_ReadMemU32(0xE0001004, 0x0001 Items, ...) -- CPU_ReadMem(4 bytes @ 0xE0001004) -- Data:  01 00 00 40  returns 0x01 (0002ms, 2207ms total)
T1BD8 056:733 JLINK_Step() -- CPU_ReadMem(64 bytes @ 0x08011040) -- Updating C cache (64 bytes @ 0x08011040) -- Read from C cache (2 bytes @ 0x0801104E) -- Not simulated -- CPU_WriteMem(4 bytes @ 0xE0002008) -- CPU_WriteMem(4 bytes @ 0xE000200C) -- CPU_WriteMem(4 bytes @ 0xE0002010) -- CPU_WriteMem(4 bytes @ 0xE0002014) -- CPU_WriteMem(4 bytes @ 0xE0002018) -- CPU_WriteMem(4 bytes @ 0xE000201C)  returns 0x00 (0026ms, 2209ms total)
T1BD8 056:759 JLINK_ReadReg(R15)  returns 0x08011050 (0000ms, 2235ms total)
T1BD8 056:759 JLINK_ReadReg(XPSR)  returns 0x61000000 (0000ms, 2235ms total)
T1BD8 056:759 JLINK_SetBPEx(Addr = 0x080107F0, Type = 0xFFFFFFF2)  returns 0x0000000D (0000ms, 2235ms total)
T1BD8 056:759 JLINK_SetBPEx(Addr = 0x0801603C, Type = 0xFFFFFFF2)  returns 0x0000000E (0000ms, 2235ms total)
T1BD8 056:759 JLINK_SetBPEx(Addr = 0x0801104E, Type = 0xFFFFFFF2)  returns 0x0000000F (0000ms, 2235ms total)
T1BD8 056:759 JLINK_Go() -- CPU_WriteMem(4 bytes @ 0xE0002008) -- CPU_WriteMem(4 bytes @ 0xE000200C) -- CPU_WriteMem(4 bytes @ 0xE0002010) -- CPU_WriteMem(4 bytes @ 0xE0002014) -- CPU_WriteMem(4 bytes @ 0xE0002018) -- CPU_WriteMem(4 bytes @ 0xE000201C) (0007ms, 2235ms total)
T1BD8 056:867 JLINK_IsHalted()  returns FALSE (0001ms, 2242ms total)
T1BD8 056:973 JLINK_IsHalted()  returns FALSE (0001ms, 2242ms total)
T1BD8 057:075 JLINK_IsHalted()  returns FALSE (0001ms, 2242ms total)
T1BD8 057:176 JLINK_IsHalted()  returns FALSE (0002ms, 2242ms total)
T1BD8 057:279 JLINK_ReadMemU32(0xE0001004, 0x0001 Items, ...) -- CPU is running -- CPU_ReadMem(4 bytes @ 0xE0001004) -- Data:  01 00 00 40  returns 0x01 (0001ms, 2242ms total)
T1BD8 057:280 JLINK_IsHalted()  returns FALSE (0001ms, 2243ms total)
T1BD8 057:382 JLINK_IsHalted()  returns FALSE (0001ms, 2243ms total)
T1BD8 057:483 JLINK_IsHalted()  returns FALSE (0001ms, 2243ms total)
T1BD8 057:585 JLINK_IsHalted()  returns FALSE (0001ms, 2243ms total)
T1BD8 057:686 JLINK_IsHalted()  returns FALSE (0001ms, 2243ms total)
T1BD8 057:788 JLINK_ReadMemU32(0xE0001004, 0x0001 Items, ...) -- CPU is running -- CPU_ReadMem(4 bytes @ 0xE0001004) -- Data:  01 00 00 40  returns 0x01 (0004ms, 2243ms total)
T1BD8 057:796 JLINK_IsHalted()  returns FALSE (0001ms, 2247ms total)
T1BD8 057:897 JLINK_IsHalted()  returns FALSE (0002ms, 2247ms total)
T1BD8 058:000 JLINK_IsHalted()  returns FALSE (0002ms, 2247ms total)
T1BD8 058:102 JLINK_IsHalted()  returns FALSE (0001ms, 2247ms total)
T1BD8 058:204 JLINK_IsHalted()  returns FALSE (0001ms, 2247ms total)
T1BD8 058:305 JLINK_ReadMemU32(0xE0001004, 0x0001 Items, ...) -- CPU is running -- CPU_ReadMem(4 bytes @ 0xE0001004) -- Data:  01 00 00 40  returns 0x01 (0001ms, 2247ms total)
T1BD8 058:307 JLINK_IsHalted()  returns FALSE (0001ms, 2248ms total)
T1BD8 058:409 JLINK_IsHalted()  returns FALSE (0002ms, 2248ms total)
T1BD8 058:511 JLINK_IsHalted()  returns FALSE (0002ms, 2248ms total)
T1BD8 058:616 JLINK_IsHalted()  returns FALSE (0003ms, 2248ms total)
T1BD8 058:719 JLINK_IsHalted()  returns FALSE (0001ms, 2248ms total)
T1BD8 058:821 JLINK_ReadMemU32(0xE0001004, 0x0001 Items, ...) -- CPU is running -- CPU_ReadMem(4 bytes @ 0xE0001004) -- Data:  01 00 00 40  returns 0x01 (0011ms, 2248ms total)
T1BD8 058:839 JLINK_IsHalted()  returns FALSE (0001ms, 2259ms total)
T1BD8 058:940 JLINK_IsHalted()  returns FALSE (0006ms, 2259ms total)
T1BD8 059:047 JLINK_IsHalted()  returns FALSE (0001ms, 2259ms total)
T1BD8 059:148 JLINK_IsHalted()  returns FALSE (0001ms, 2259ms total)
T1BD8 059:250 JLINK_IsHalted()  returns FALSE (0002ms, 2259ms total)
T1BD8 059:352 JLINK_ReadMemU32(0xE0001004, 0x0001 Items, ...) -- CPU is running -- CPU_ReadMem(4 bytes @ 0xE0001004) -- Data:  01 00 00 40  returns 0x01 (0001ms, 2259ms total)
T1BD8 059:354 JLINK_IsHalted()  returns FALSE (0000ms, 2260ms total)
T1BD8 059:455 JLINK_IsHalted()  returns FALSE (0002ms, 2260ms total)
T1BD8 059:557 JLINK_IsHalted()  returns FALSE (0001ms, 2260ms total)
T1BD8 059:659 JLINK_IsHalted()  returns FALSE (0002ms, 2260ms total)
T1BD8 059:761 JLINK_IsHalted()  returns FALSE (0001ms, 2260ms total)
T1BD8 059:863 JLINK_ReadMemU32(0xE0001004, 0x0001 Items, ...) -- CPU is running -- CPU_ReadMem(4 bytes @ 0xE0001004) -- Data:  01 00 00 40  returns 0x01 (0003ms, 2260ms total)
T1BD8 059:866 JLINK_IsHalted()  returns FALSE (0001ms, 2263ms total)
T1BD8 059:968 JLINK_IsHalted()  returns FALSE (0000ms, 2263ms total)
T1BD8 060:069 JLINK_IsHalted()  returns FALSE (0002ms, 2263ms total)
T1BD8 060:172 JLINK_IsHalted()  returns FALSE (0001ms, 2263ms total)
T1BD8 060:273 JLINK_IsHalted()  returns FALSE (0000ms, 2263ms total)
T1BD8 060:374 JLINK_IsHalted()  returns FALSE (0001ms, 2263ms total)
T1BD8 060:476 JLINK_ReadMemU32(0xE0001004, 0x0001 Items, ...) -- CPU is running -- CPU_ReadMem(4 bytes @ 0xE0001004) -- Data:  01 00 00 40  returns 0x01 (0004ms, 2263ms total)
T1BD8 060:496 JLINK_IsHalted()  returns FALSE (0002ms, 2267ms total)
T1BD8 060:598 JLINK_IsHalted()  returns TRUE (0007ms, 2267ms total)
T1BD8 060:605 JLINK_Halt()  returns 0x00 (0001ms, 2267ms total)
T1BD8 060:606 JLINK_IsHalted()  returns TRUE (0000ms, 2268ms total)
T1BD8 060:606 JLINK_IsHalted()  returns TRUE (0000ms, 2268ms total)
T1BD8 060:606 JLINK_IsHalted()  returns TRUE (0000ms, 2268ms total)
T1BD8 060:606 JLINK_ReadReg(R15)  returns 0x080107F0 (0000ms, 2268ms total)
T1BD8 060:606 JLINK_ReadReg(XPSR)  returns 0x81000000 (0000ms, 2268ms total)
T1BD8 060:606 JLINK_ClrBPEx(BPHandle = 0x0000000D)  returns 0x00 (0000ms, 2268ms total)
T1BD8 060:606 JLINK_ClrBPEx(BPHandle = 0x0000000E)  returns 0x00 (0000ms, 2268ms total)
T1BD8 060:606 JLINK_ClrBPEx(BPHandle = 0x0000000F)  returns 0x00 (0001ms, 2268ms total)
T1BD8 060:607 JLINK_ReadMemU32(0xE000ED30, 0x0001 Items, ...) -- CPU_ReadMem(4 bytes @ 0xE000ED30) -- Data:  03 00 00 00  returns 0x01 (0000ms, 2269ms total)
T1BD8 060:608 JLINK_ReadMemU32(0xE0001028, 0x0001 Items, ...) -- CPU_ReadMem(4 bytes @ 0xE0001028) -- Data:  01 00 00 40  returns 0x01 (0001ms, 2270ms total)
T1BD8 060:609 JLINK_ReadMemU32(0xE0001038, 0x0001 Items, ...) -- CPU_ReadMem(4 bytes @ 0xE0001038) -- Data:  01 00 00 40  returns 0x01 (0001ms, 2271ms total)
T1BD8 060:610 JLINK_ReadMemU32(0xE0001048, 0x0001 Items, ...) -- CPU_ReadMem(4 bytes @ 0xE0001048) -- Data:  01 00 00 40  returns 0x01 (0001ms, 2272ms total)
T1BD8 060:611 JLINK_ReadMemU32(0xE0001058, 0x0001 Items, ...) -- CPU_ReadMem(4 bytes @ 0xE0001058) -- Data:  01 00 00 40  returns 0x01 (0001ms, 2273ms total)
T1BD8 060:612 JLINK_ReadReg(R0)  returns 0xFFFFFFDD (0000ms, 2274ms total)
T1BD8 060:612 JLINK_ReadReg(R1)  returns 0x00000071 (0000ms, 2274ms total)
T1BD8 060:612 JLINK_ReadReg(R2)  returns 0x00000000 (0000ms, 2274ms total)
T1BD8 060:612 JLINK_ReadReg(R3)  returns 0x0000004E (0000ms, 2274ms total)
T1BD8 060:612 JLINK_ReadReg(R4)  returns 0x00000001 (0000ms, 2274ms total)
T1BD8 060:612 JLINK_ReadReg(R5)  returns 0x00000000 (0000ms, 2274ms total)
T1BD8 060:612 JLINK_ReadReg(R6)  returns 0x00000000 (0001ms, 2274ms total)
T1BD8 060:613 JLINK_ReadReg(R7)  returns 0x00000025 (0000ms, 2275ms total)
T1BD8 060:613 JLINK_ReadReg(R8)  returns 0x00000000 (0000ms, 2275ms total)
T1BD8 060:613 JLINK_ReadReg(R9)  returns 0x00000000 (0000ms, 2275ms total)
T1BD8 060:613 JLINK_ReadReg(R10)  returns 0x00000000 (0000ms, 2275ms total)
T1BD8 060:613 JLINK_ReadReg(R11)  returns 0x00000000 (0000ms, 2275ms total)
T1BD8 060:613 JLINK_ReadReg(R12)  returns 0x00000073 (0000ms, 2275ms total)
T1BD8 060:613 JLINK_ReadReg(R14)  returns 0x080107E5 (0000ms, 2275ms total)
T1BD8 060:613 JLINK_ReadReg(R15)  returns 0x080107F0 (0001ms, 2275ms total)
T1BD8 060:614 JLINK_ReadReg(XPSR)  returns 0x81000000 (0000ms, 2276ms total)
T1BD8 060:614 JLINK_ReadReg(CFBP)  returns 0x00000000 (0001ms, 2276ms total)
T1BD8 060:615 JLINK_ReadReg(MSP)  returns 0x2000E2B8 (0000ms, 2277ms total)
T1BD8 060:615 JLINK_ReadMem (0x2000E4CC, 0x0004 Bytes, ...) -- CPU_ReadMem(64 bytes @ 0x2000E4C0) -- Updating C cache (64 bytes @ 0x2000E4C0) -- Read from C cache (4 bytes @ 0x2000E4CC) -- Data:  57 10 01 08  returns 0x00 (0002ms, 2277ms total)
T2074 060:617 JLINK_ReadMem (0x2000E4B8, 0x0004 Bytes, ...) -- CPU_ReadMem(64 bytes @ 0x2000E480) -- Updating C cache (64 bytes @ 0x2000E480) -- Read from C cache (4 bytes @ 0x2000E4B8) -- Data:  01 00 00 00  returns 0x00 (0003ms, 2279ms total)
T2074 060:620 JLINK_ReadMem (0x2000E4BC, 0x0004 Bytes, ...) -- Read from C cache (4 bytes @ 0x2000E4BC) -- Data:  C0 E5 00 20  returns 0x00 (0000ms, 2282ms total)
T2074 060:620 JLINK_ReadMem (0x2000E4C0, 0x0004 Bytes, ...) -- Read from C cache (4 bytes @ 0x2000E4C0) -- Data:  00 00 00 00  returns 0x00 (0000ms, 2282ms total)
T2074 060:620 JLINK_ReadMem (0x2000E4C4, 0x0004 Bytes, ...) -- Read from C cache (4 bytes @ 0x2000E4C4) -- Data:  05 0F 01 08  returns 0x00 (0000ms, 2282ms total)
T2074 060:620 JLINK_ReadMem (0x2000E4C8, 0x0004 Bytes, ...) -- Read from C cache (4 bytes @ 0x2000E4C8) -- Data:  00 00 00 00  returns 0x00 (0001ms, 2282ms total)
T2074 060:621 JLINK_ReadMem (0x2000E5BC, 0x0004 Bytes, ...) -- CPU_ReadMem(64 bytes @ 0x2000E580) -- Updating C cache (64 bytes @ 0x2000E580) -- Read from C cache (4 bytes @ 0x2000E5BC) -- Data:  91 0E 00 08  returns 0x00 (0002ms, 2283ms total)
T2074 060:623 JLINK_WriteReg(R0, 0xFFFFFFDD)  returns 0x00 (0000ms, 2285ms total)
T2074 060:623 JLINK_WriteReg(R1, 0x00000071)  returns 0x00 (0000ms, 2285ms total)
T2074 060:623 JLINK_WriteReg(R2, 0x00000000)  returns 0x00 (0000ms, 2285ms total)
T2074 060:623 JLINK_WriteReg(R3, 0x0000004E)  returns 0x00 (0000ms, 2285ms total)
T2074 060:623 JLINK_WriteReg(R4, 0x00000001)  returns 0x00 (0001ms, 2285ms total)
T2074 060:624 JLINK_WriteReg(R5, 0x00000000)  returns 0x00 (0000ms, 2286ms total)
T2074 060:624 JLINK_WriteReg(R6, 0x00000000)  returns 0x00 (0000ms, 2286ms total)
T2074 060:624 JLINK_WriteReg(R7, 0x00000025)  returns 0x00 (0000ms, 2286ms total)
T2074 060:624 JLINK_WriteReg(R8, 0x00000000)  returns 0x00 (0000ms, 2286ms total)
T2074 060:624 JLINK_WriteReg(R9, 0x00000000)  returns 0x00 (0000ms, 2286ms total)
T2074 060:624 JLINK_WriteReg(R10, 0x00000000)  returns 0x00 (0000ms, 2286ms total)
T2074 060:624 JLINK_WriteReg(R11, 0x00000000)  returns 0x00 (0000ms, 2286ms total)
T2074 060:625 JLINK_WriteReg(R12, 0x00000073)  returns 0x00 (0000ms, 2286ms total)
T2074 060:625 JLINK_WriteReg(R13, 0x2000E2B8)  returns 0x00 (0000ms, 2286ms total)
T2074 060:625 JLINK_WriteReg(R14, 0x080107E5)  returns 0x00 (0000ms, 2286ms total)
T2074 060:625 JLINK_WriteReg(R15, 0x080107F0)  returns 0x00 (0000ms, 2286ms total)
T2074 060:625 JLINK_WriteReg(XPSR, 0x81000000)  returns 0x00 (0000ms, 2286ms total)
T2074 060:625 JLINK_WriteReg(MSP, 0x2000E2B8)  returns 0x00 (0000ms, 2286ms total)
T2074 060:625 JLINK_WriteReg(PSP, 0x00000000)  returns 0x00 (0000ms, 2286ms total)
T2074 060:625 JLINK_WriteReg(CFBP, 0x00000000)  returns 0x00 (0000ms, 2286ms total)
T2074 060:626 JLINK_ReadReg(R0)  returns 0xFFFFFFDD (0000ms, 2286ms total)
